T1790 000:002.952   SEGGER J-Link V6.86 Log File
T1790 000:003.068   DLL Compiled: Sep 24 2020 17:31:31
T1790 000:003.072   Logging started @ 2021-11-03 11:46
T1790 000:003.076 - 3.078ms
T1790 000:003.082 JLINK_SetWarnOutHandler(...)
T1790 000:003.088 - 0.006ms
T1790 000:003.092 JLINK_OpenEx(...)
T1790 000:004.319   Firmware: J-Link V9 compiled Dec 13 2019 11:14:50
T1790 000:004.479   Decompressing FW timestamp took 132 us
T1790 000:009.937   Hardware: V9.70
T1790 000:009.952   S/N: 59700618
T1790 000:009.958   OEM: SEGGER
T1790 000:009.963   Feature(s): RDI, FlashBP, FlashDL, JFlash, GDB
T1790 000:010.737   TELNET listener socket opened on port 19021
T1790 000:010.829   WEBSRV Starting webserver
T1790 000:010.955   WEBSRV Webserver running on local port 19080
T1790 000:010.967 - 7.877ms returns "O.K."
T1790 000:010.980 JLINK_GetEmuCaps()
T1790 000:010.987 - 0.008ms returns 0xB9FF7BBF
T1790 000:010.996 JLINK_TIF_GetAvailable(...)
T1790 000:011.117 - 0.128ms
T1790 000:011.131 JLINK_SetErrorOutHandler(...)
T1790 000:011.136 - 0.007ms
T1790 000:011.152 JLINK_ExecCommand("ProjectFile = "E:\HAIER\FreshsenseV1\MM32F0010\HAIER_MM32F010_V1\project\KEIL_PRJ\JLinkSettings.ini"", ...). 
T1790 000:019.560   Device "CORTEX-M0+" selected.
T1790 000:019.768 - 8.620ms returns 0x00
T1790 000:021.590 JLINK_ExecCommand("Device = MM32F0010A1T", ...). 
T1790 000:024.727   Device "CORTEX-M0+" selected.
T1790 000:024.956 - 3.362ms returns 0x00
T1790 000:024.972 JLINK_GetHardwareVersion()
T1790 000:024.976 - 0.006ms returns 97000
T1790 000:024.988 JLINK_GetDLLVersion()
T1790 000:024.992 - 0.006ms returns 68600
T1790 000:024.997 JLINK_GetOEMString(...)
T1790 000:025.002 JLINK_GetFirmwareString(...)
T1790 000:025.006 - 0.005ms
T1790 000:030.362 JLINK_GetDLLVersion()
T1790 000:030.372 - 0.012ms returns 68600
T1790 000:030.378 JLINK_GetCompileDateTime()
T1790 000:030.381 - 0.005ms
T1790 000:032.155 JLINK_GetFirmwareString(...)
T1790 000:032.164 - 0.011ms
T1790 000:033.956 JLINK_GetHardwareVersion()
T1790 000:033.965 - 0.010ms returns 97000
T1790 000:035.728 JLINK_GetSN()
T1790 000:035.736 - 0.009ms returns 59700618
T1790 000:037.539 JLINK_GetOEMString(...)
T1790 000:042.822 JLINK_TIF_Select(JLINKARM_TIF_SWD)
T1790 000:043.252 - 0.437ms returns 0x00
T1790 000:043.264 JLINK_HasError()
T1790 000:043.273 JLINK_SetSpeed(5000)
T1790 000:043.326 - 0.056ms
T1790 000:043.334 JLINK_GetId()
T1790 000:045.658   Found SW-DP with ID 0x0BB11477
T1790 000:046.980   Old FW that does not support reading DPIDR via DAP jobs
T1790 000:049.345   Unknown DP version. Assuming DPv0
T1790 000:051.098   Scanning AP map to find all available APs
T1790 000:053.718   AP[1]: Stopped AP scan as end of AP map has been reached
T1790 000:055.903   AP[0]: AHB-AP (IDR: 0x04770021)
T1790 000:057.640   Iterating through AP map to find AHB-AP to use
T1790 000:060.134   AP[0]: Core found
T1790 000:061.908   AP[0]: AHB-AP ROM base: 0xE00FF000
T1790 000:064.010   CPUID register: 0x410CC200. Implementer code: 0x41 (ARM)
T1790 000:065.755   Found Cortex-M0 r0p0, Little endian.
T1790 000:166.509   -- Max. mem block: 0x00010DD0
T1790 000:166.534   CPU_ReadMem(4 bytes @ 0xE000EDF0)
T1790 000:167.157   CPU_WriteMem(4 bytes @ 0xE000EDF0)
T1790 000:167.507   CPU_ReadMem(4 bytes @ 0xE0002000)
T1790 000:170.380   FPUnit: 4 code (BP) slots and 0 literal slots
T1790 000:170.401   CPU_ReadMem(4 bytes @ 0xE000EDFC)
T1790 000:170.742   CPU_WriteMem(4 bytes @ 0xE000EDFC)
T1790 000:170.989   CPU_ReadMem(4 bytes @ 0xE0001000)
T1790 000:171.221   CPU_WriteMem(4 bytes @ 0xE0001000)
T1790 000:173.403   CoreSight components:
T1790 000:175.192   ROMTbl[0] @ E00FF000
T1790 000:175.203   CPU_ReadMem(64 bytes @ 0xE00FF000)
T1790 000:175.820   CPU_ReadMem(32 bytes @ 0xE000EFE0)
T1790 000:178.890   ROMTbl[0][0]: E000E000, CID: B105E00D, PID: 000BB008 SCS
T1790 000:178.909   CPU_ReadMem(32 bytes @ 0xE0001FE0)
T1790 000:181.082   ROMTbl[0][1]: E0001000, CID: B105E00D, PID: 000BB00A DWT
T1790 000:181.095   CPU_ReadMem(32 bytes @ 0xE0002FE0)
T1790 000:183.253   ROMTbl[0][2]: E0002000, CID: B105E00D, PID: 000BB00B FPB
T1790 000:183.465 - 140.135ms returns 0x0BB11477
T1790 000:183.477 JLINK_GetDLLVersion()
T1790 000:183.481 - 0.005ms returns 68600
T1790 000:183.510 JLINK_CORE_GetFound()
T1790 000:183.514 - 0.006ms returns 0x60000FF
T1790 000:183.519 JLINK_GetDebugInfo(0x100 = JLINKARM_ROM_TABLE_ADDR_INDEX)
T1790 000:183.523   Value=0xE00FF000
T1790 000:183.529 - 0.011ms returns 0
T1790 000:185.386 JLINK_GetDebugInfo(0x100 = JLINKARM_ROM_TABLE_ADDR_INDEX)
T1790 000:185.396   Value=0xE00FF000
T1790 000:185.401 - 0.017ms returns 0
T1790 000:185.406 JLINK_GetDebugInfo(0x101 = JLINKARM_DEBUG_INFO_ETM_ADDR_INDEX)
T1790 000:185.410   Value=0x00000000
T1790 000:185.415 - 0.011ms returns 0
T1790 000:185.423 JLINK_ReadMemEx(0xE0041FF0, 0x10 Bytes, Flags = 0x02000004)
T1790 000:185.440   CPU_ReadMem(16 bytes @ 0xE0041FF0)
T1790 000:185.728   Data:  00 00 00 00 00 00 00 00 00 00 00 00 00 00 00 00
T1790 000:185.735 - 0.313ms returns 16 (0x10)
T1790 000:185.740 JLINK_GetDebugInfo(0x102 = JLINKARM_DEBUG_INFO_MTB_ADDR_INDEX)
T1790 000:185.744   Value=0x00000000
T1790 000:185.749 - 0.011ms returns 0
T1790 000:185.754 JLINK_GetDebugInfo(0x103 = JLINKARM_DEBUG_INFO_TPIU_ADDR_INDEX)
T1790 000:185.758   Value=0x00000000
T1790 000:185.763 - 0.011ms returns 0
T1790 000:185.767 JLINK_ReadMemEx(0xE0040FF0, 0x10 Bytes, Flags = 0x02000004)
T1790 000:185.774   CPU_ReadMem(16 bytes @ 0xE0040FF0)
T1790 000:186.006   Data:  00 00 00 00 00 00 00 00 00 00 00 00 00 00 00 00
T1790 000:186.013 - 0.247ms returns 16 (0x10)
T1790 000:186.018 JLINK_GetDebugInfo(0x104 = JLINKARM_DEBUG_INFO_ITM_ADDR_INDEX)
T1790 000:186.022   Value=0xE0000000
T1790 000:186.027 - 0.011ms returns 0
T1790 000:186.031 JLINK_GetDebugInfo(0x105 = JLINKARM_DEBUG_INFO_DWT_ADDR_INDEX)
T1790 000:186.035   Value=0xE0001000
T1790 000:186.040 - 0.010ms returns 0
T1790 000:186.045 JLINK_GetDebugInfo(0x106 = JLINKARM_DEBUG_INFO_FPB_ADDR_INDEX)
T1790 000:186.049   Value=0xE0002000
T1790 000:186.054 - 0.010ms returns 0
T1790 000:186.058 JLINK_GetDebugInfo(0x107 = JLINKARM_DEBUG_INFO_NVIC_ADDR_INDEX)
T1790 000:186.062   Value=0xE000E000
T1790 000:186.067 - 0.010ms returns 0
T1790 000:186.072 JLINK_GetDebugInfo(0x10C = JLINKARM_DEBUG_INFO_DBG_ADDR_INDEX)
T1790 000:186.076   Value=0xE000EDF0
T1790 000:186.081 - 0.010ms returns 0
T1790 000:186.085 JLINK_GetDebugInfo(0x01 = Unknown)
T1790 000:186.089   Value=0x00000000
T1790 000:186.094 - 0.011ms returns 0
T1790 000:186.099 JLINK_ReadMemU32(0xE000ED00, 0x1 Items)
T1790 000:186.105   CPU_ReadMem(4 bytes @ 0xE000ED00)
T1790 000:186.308   Data:  00 C2 0C 41
T1790 000:186.315   Debug reg: CPUID
T1790 000:186.320 - 0.223ms returns 1 (0x1)
T1790 000:186.326 JLINK_GetDebugInfo(0x10F = JLINKARM_DEBUG_INFO_HAS_CORTEX_M_SECURITY_EXT_INDEX)
T1790 000:186.330   Value=0x00000000
T1790 000:186.335 - 0.011ms returns 0
T1790 000:186.340 JLINK_HasError()
T1790 000:186.344 JLINK_SetResetType(JLINKARM_CM3_RESET_TYPE_NORMAL)
T1790 000:186.348 - 0.005ms returns JLINKARM_CM3_RESET_TYPE_NORMAL
T1790 000:186.353 JLINK_Reset()
T1790 000:186.364   CPU is running
T1790 000:186.371   CPU_WriteMem(4 bytes @ 0xE000EDF0)
T1790 000:186.570   CPU is running
T1790 000:186.577   CPU_WriteMem(4 bytes @ 0xE000EDFC)
T1790 000:188.651   Reset: Halt core after reset via DEMCR.VC_CORERESET.
T1790 000:190.738   Reset: Reset device via AIRCR.SYSRESETREQ.
T1790 000:190.748   CPU is running
T1790 000:190.755   CPU_WriteMem(4 bytes @ 0xE000ED0C)
T1790 000:242.751   CPU_ReadMem(4 bytes @ 0xE000EDF0)
T1790 000:242.966   CPU_ReadMem(4 bytes @ 0xE000EDF0)
T1790 000:243.167   CPU is running
T1790 000:243.175   CPU_WriteMem(4 bytes @ 0xE000EDF0)
T1790 000:243.374   CPU is running
T1790 000:243.381   CPU_WriteMem(4 bytes @ 0xE000EDFC)
T1790 000:248.653   CPU_ReadMem(4 bytes @ 0xE000EDF0)
T1790 000:250.680   CPU_WriteMem(4 bytes @ 0xE0002000)
T1790 000:250.930   CPU_ReadMem(4 bytes @ 0xE000EDFC)
T1790 000:251.127   CPU_ReadMem(4 bytes @ 0xE0001000)
T1790 000:251.330   CPU_WriteMem(4 bytes @ 0xE0001000)
T1790 000:251.542 - 65.193ms
T1790 000:251.554 JLINK_Halt()
T1790 000:251.558 - 0.006ms returns 0x00
T1790 000:251.587 JLINK_ReadMemU32(0xE000EDF0, 0x1 Items)
T1790 000:251.596   CPU_ReadMem(4 bytes @ 0xE000EDF0)
T1790 000:251.841   Data:  03 00 03 00
T1790 000:251.848   Debug reg: DHCSR
T1790 000:251.853 - 0.267ms returns 1 (0x1)
T1790 000:251.860 JLINK_WriteU32_64(0xE000EDF0, 0xA05F0003)
T1790 000:251.866   Debug reg: DHCSR
T1790 000:251.877   CPU_WriteMem(4 bytes @ 0xE000EDF0)
T1790 000:252.115 - 0.258ms returns 0 (0x00000000)
T1790 000:252.122 JLINK_WriteU32_64(0xE000EDFC, 0x01000000)
T1790 000:252.126   Debug reg: DEMCR
T1790 000:252.133   CPU_WriteMem(4 bytes @ 0xE000EDFC)
T1790 000:252.372 - 0.252ms returns 0 (0x00000000)
T1790 000:260.650 JLINK_GetHWStatus(...)
T1790 000:260.784 - 0.141ms returns 0
T1790 000:270.111 JLINK_GetNumBPUnits(Type = 0xFFFFFF00)
T1790 000:270.240 - 0.132ms returns 0x04
T1790 000:270.248 JLINK_GetNumBPUnits(Type = 0xF0)
T1790 000:270.254 - 0.007ms returns 0x2000
T1790 000:270.260 JLINK_GetNumWPUnits()
T1790 000:270.265 - 0.007ms returns 2
T1790 000:276.472 JLINK_GetSpeed()
T1790 000:276.488 - 0.017ms returns 4000
T1790 000:280.058 JLINK_ReadMemU32(0xE000E004, 0x1 Items)
T1790 000:280.076   CPU_ReadMem(4 bytes @ 0xE000E004)
T1790 000:280.335   Data:  00 00 00 00
T1790 000:280.344 - 0.288ms returns 1 (0x1)
T1790 000:280.353 JLINK_Halt()
T1790 000:280.357 - 0.006ms returns 0x00
T1790 000:280.361 JLINK_IsHalted()
T1790 000:280.366 - 0.006ms returns TRUE
T1790 000:282.022 JLINK_WriteMem(0x20000000, 0x228 Bytes, ...)
T1790 000:282.031   Data:  00 BE 0A E0 0D 78 2D 06 68 40 08 24 40 00 00 D3 ...
T1790 000:282.215   CPU_WriteMem(552 bytes @ 0x20000000)
T1790 000:284.668 - 2.650ms returns 0x228
T1790 000:284.690 JLINK_HasError()
T1790 000:284.696 JLINK_WriteReg(R0, 0x08000000)
T1790 000:284.703 - 0.008ms returns 0
T1790 000:284.707 JLINK_WriteReg(R1, 0x02DC6C00)
T1790 000:284.711 - 0.005ms returns 0
T1790 000:284.716 JLINK_WriteReg(R2, 0x00000001)
T1790 000:284.720 - 0.006ms returns 0
T1790 000:284.724 JLINK_WriteReg(R3, 0x00000000)
T1790 000:284.728 - 0.005ms returns 0
T1790 000:284.733 JLINK_WriteReg(R4, 0x00000000)
T1790 000:284.737 - 0.026ms returns 0
T1790 000:284.761 JLINK_WriteReg(R5, 0x00000000)
T1790 000:284.765 - 0.005ms returns 0
T1790 000:284.770 JLINK_WriteReg(R6, 0x00000000)
T1790 000:284.774 - 0.005ms returns 0
T1790 000:284.778 JLINK_WriteReg(R7, 0x00000000)
T1790 000:284.782 - 0.005ms returns 0
T1790 000:284.787 JLINK_WriteReg(R8, 0x00000000)
T1790 000:284.809 - 0.024ms returns 0
T1790 000:284.814 JLINK_WriteReg(R9, 0x20000224)
T1790 000:284.817 - 0.005ms returns 0
T1790 000:284.822 JLINK_WriteReg(R10, 0x00000000)
T1790 000:284.826 - 0.005ms returns 0
T1790 000:284.830 JLINK_WriteReg(R11, 0x00000000)
T1790 000:284.834 - 0.005ms returns 0
T1790 000:284.838 JLINK_WriteReg(R12, 0x00000000)
T1790 000:284.842 - 0.005ms returns 0
T1790 000:284.846 JLINK_WriteReg(R13 (SP), 0x20000800)
T1790 000:284.851 - 0.006ms returns 0
T1790 000:284.855 JLINK_WriteReg(R14, 0x20000001)
T1790 000:284.859 - 0.005ms returns 0
T1790 000:284.864 JLINK_WriteReg(R15 (PC), 0x2000002C)
T1790 000:284.869 - 0.007ms returns 0
T1790 000:284.874 JLINK_WriteReg(XPSR, 0x01000000)
T1790 000:284.878 - 0.005ms returns 0
T1790 000:284.882 JLINK_WriteReg(MSP, 0x20000800)
T1790 000:284.886 - 0.005ms returns 0
T1790 000:284.890 JLINK_WriteReg(PSP, 0x20000800)
T1790 000:284.894 - 0.005ms returns 0
T1790 000:284.899 JLINK_WriteReg(CFBP, 0x00000000)
T1790 000:284.902 - 0.005ms returns 0
T1790 000:284.907 JLINK_SetBPEx(Addr = 0x20000000, Type = 0xFFFFFFF2)
T1790 000:284.914   CPU_ReadMem(4 bytes @ 0x20000000)
T1790 000:285.188   CPU_WriteMem(4 bytes @ 0x20000000)
T1790 000:285.432   CPU_ReadMem(4 bytes @ 0x20000000)
T1790 000:285.686   CPU_WriteMem(4 bytes @ 0x20000000)
T1790 000:285.894   CPU_ReadMem(2 bytes @ 0x20000000)
T1790 000:286.123 - 1.220ms returns 0x00000001
T1790 000:286.131 JLINK_Go()
T1790 000:286.138   CPU_WriteMem(2 bytes @ 0x20000000)
T1790 000:286.360   CPU_ReadMem(4 bytes @ 0xE0001000)
T1790 000:286.575   CPU_WriteMem(4 bytes @ 0xE0001000)
T1790 000:286.583   CPU_WriteMem(4 bytes @ 0xE0002008)
T1790 000:286.589   CPU_WriteMem(4 bytes @ 0xE000200C)
T1790 000:286.595   CPU_WriteMem(4 bytes @ 0xE0002010)
T1790 000:286.600   CPU_WriteMem(4 bytes @ 0xE0002014)
T1790 000:287.394   CPU_WriteMem(4 bytes @ 0xE0001004)
T1790 000:289.198 - 3.073ms
T1790 000:289.209 JLINK_IsHalted()
T1790 000:290.910   CPU_ReadMem(2 bytes @ 0x20000000)
T1790 000:291.172 - 1.968ms returns TRUE
T1790 000:291.182 JLINK_ReadReg(R15 (PC))
T1790 000:291.188 - 0.007ms returns 0x20000000
T1790 000:291.192 JLINK_ClrBPEx(BPHandle = 0x00000001)
T1790 000:291.197 - 0.006ms returns 0x00
T1790 000:291.202 JLINK_ReadReg(R0)
T1790 000:291.206 - 0.006ms returns 0x00000000
T1790 000:291.420 JLINK_HasError()
T1790 000:291.428 JLINK_WriteReg(R0, 0x08000000)
T1790 000:291.433 - 0.007ms returns 0
T1790 000:291.438 JLINK_WriteReg(R1, 0x02DC6C00)
T1790 000:291.442 - 0.006ms returns 0
T1790 000:291.447 JLINK_WriteReg(R2, 0x00000001)
T1790 000:291.451 - 0.005ms returns 0
T1790 000:291.455 JLINK_WriteReg(R3, 0x00000000)
T1790 000:291.459 - 0.006ms returns 0
T1790 000:291.464 JLINK_WriteReg(R4, 0x00000000)
T1790 000:291.468 - 0.005ms returns 0
T1790 000:291.472 JLINK_WriteReg(R5, 0x00000000)
T1790 000:291.476 - 0.005ms returns 0
T1790 000:291.481 JLINK_WriteReg(R6, 0x00000000)
T1790 000:291.485 - 0.005ms returns 0
T1790 000:291.489 JLINK_WriteReg(R7, 0x00000000)
T1790 000:291.493 - 0.005ms returns 0
T1790 000:291.497 JLINK_WriteReg(R8, 0x00000000)
T1790 000:291.502 - 0.006ms returns 0
T1790 000:291.506 JLINK_WriteReg(R9, 0x20000224)
T1790 000:291.510 - 0.005ms returns 0
T1790 000:291.515 JLINK_WriteReg(R10, 0x00000000)
T1790 000:291.519 - 0.006ms returns 0
T1790 000:291.523 JLINK_WriteReg(R11, 0x00000000)
T1790 000:291.527 - 0.006ms returns 0
T1790 000:291.532 JLINK_WriteReg(R12, 0x00000000)
T1790 000:291.536 - 0.005ms returns 0
T1790 000:291.540 JLINK_WriteReg(R13 (SP), 0x20000800)
T1790 000:291.544 - 0.006ms returns 0
T1790 000:291.549 JLINK_WriteReg(R14, 0x20000001)
T1790 000:291.553 - 0.006ms returns 0
T1790 000:291.557 JLINK_WriteReg(R15 (PC), 0x20000152)
T1790 000:291.562 - 0.005ms returns 0
T1790 000:291.566 JLINK_WriteReg(XPSR, 0x01000000)
T1790 000:291.570 - 0.006ms returns 0
T1790 000:291.575 JLINK_WriteReg(MSP, 0x20000800)
T1790 000:291.579 - 0.005ms returns 0
T1790 000:291.583 JLINK_WriteReg(PSP, 0x20000800)
T1790 000:291.587 - 0.006ms returns 0
T1790 000:291.591 JLINK_WriteReg(CFBP, 0x00000000)
T1790 000:291.595 - 0.005ms returns 0
T1790 000:291.600 JLINK_SetBPEx(Addr = 0x20000000, Type = 0xFFFFFFF2)
T1790 000:291.605 - 0.006ms returns 0x00000002
T1790 000:291.609 JLINK_Go()
T1790 000:291.617   CPU_ReadMem(4 bytes @ 0xE0001000)
T1790 000:291.830   CPU_WriteMem(4 bytes @ 0xE0001000)
T1790 000:293.748 - 2.141ms
T1790 000:293.755 JLINK_IsHalted()
T1790 000:293.950 - 0.198ms returns FALSE
T1790 000:293.956 JLINK_HasError()
T1790 000:303.371 JLINK_IsHalted()
T1790 000:303.623 - 0.256ms returns FALSE
T1790 000:303.631 JLINK_HasError()
T1790 000:305.359 JLINK_IsHalted()
T1790 000:305.622 - 0.265ms returns FALSE
T1790 000:305.628 JLINK_HasError()
T1790 000:307.352 JLINK_IsHalted()
T1790 000:307.622 - 0.273ms returns FALSE
T1790 000:307.628 JLINK_HasError()
T1790 000:309.626 JLINK_IsHalted()
T1790 000:309.835 - 0.212ms returns FALSE
T1790 000:309.842 JLINK_HasError()
T1790 000:313.141 JLINK_IsHalted()
T1790 000:313.451 - 0.313ms returns FALSE
T1790 000:313.458 JLINK_HasError()
T1790 000:315.380 JLINK_IsHalted()
T1790 000:315.686 - 0.309ms returns FALSE
T1790 000:315.692 JLINK_HasError()
T1790 000:317.384 JLINK_IsHalted()
T1790 000:317.698 - 0.318ms returns FALSE
T1790 000:317.706 JLINK_HasError()
T1790 000:319.721 JLINK_IsHalted()
T1790 000:320.024 - 0.306ms returns FALSE
T1790 000:320.031 JLINK_HasError()
T1790 000:322.040 JLINK_IsHalted()
T1790 000:322.301 - 0.264ms returns FALSE
T1790 000:322.348 JLINK_HasError()
T1790 000:324.314 JLINK_IsHalted()
T1790 000:324.581 - 0.270ms returns FALSE
T1790 000:324.587 JLINK_HasError()
T1790 000:326.307 JLINK_IsHalted()
T1790 000:326.569 - 0.264ms returns FALSE
T1790 000:326.575 JLINK_HasError()
T1790 000:328.316 JLINK_IsHalted()
T1790 000:328.674 - 0.360ms returns FALSE
T1790 000:328.682 JLINK_HasError()
T1790 000:330.687 JLINK_IsHalted()
T1790 000:332.748   CPU_ReadMem(2 bytes @ 0x20000000)
T1790 000:333.103 - 2.421ms returns TRUE
T1790 000:333.113 JLINK_ReadReg(R15 (PC))
T1790 000:333.120 - 0.009ms returns 0x20000000
T1790 000:333.125 JLINK_ClrBPEx(BPHandle = 0x00000002)
T1790 000:333.129 - 0.006ms returns 0x00
T1790 000:333.134 JLINK_ReadReg(R0)
T1790 000:333.138 - 0.006ms returns 0x00000000
T1790 000:385.405 JLINK_HasError()
T1790 000:385.428 JLINK_WriteReg(R0, 0x00000001)
T1790 000:385.438 - 0.013ms returns 0
T1790 000:385.445 JLINK_WriteReg(R1, 0x02DC6C00)
T1790 000:385.450 - 0.007ms returns 0
T1790 000:385.455 JLINK_WriteReg(R2, 0x00000001)
T1790 000:385.460 - 0.007ms returns 0
T1790 000:385.465 JLINK_WriteReg(R3, 0x00000000)
T1790 000:385.470 - 0.006ms returns 0
T1790 000:385.475 JLINK_WriteReg(R4, 0x00000000)
T1790 000:385.479 - 0.007ms returns 0
T1790 000:385.485 JLINK_WriteReg(R5, 0x00000000)
T1790 000:385.490 - 0.007ms returns 0
T1790 000:385.496 JLINK_WriteReg(R6, 0x00000000)
T1790 000:385.501 - 0.008ms returns 0
T1790 000:385.507 JLINK_WriteReg(R7, 0x00000000)
T1790 000:385.513 - 0.008ms returns 0
T1790 000:385.520 JLINK_WriteReg(R8, 0x00000000)
T1790 000:385.526 - 0.010ms returns 0
T1790 000:385.535 JLINK_WriteReg(R9, 0x20000224)
T1790 000:385.542 - 0.010ms returns 0
T1790 000:385.550 JLINK_WriteReg(R10, 0x00000000)
T1790 000:385.557 - 0.011ms returns 0
T1790 000:385.566 JLINK_WriteReg(R11, 0x00000000)
T1790 000:385.573 - 0.009ms returns 0
T1790 000:385.579 JLINK_WriteReg(R12, 0x00000000)
T1790 000:385.584 - 0.007ms returns 0
T1790 000:385.590 JLINK_WriteReg(R13 (SP), 0x20000800)
T1790 000:385.596 - 0.009ms returns 0
T1790 000:385.602 JLINK_WriteReg(R14, 0x20000001)
T1790 000:385.607 - 0.008ms returns 0
T1790 000:385.614 JLINK_WriteReg(R15 (PC), 0x2000005E)
T1790 000:385.620 - 0.008ms returns 0
T1790 000:385.625 JLINK_WriteReg(XPSR, 0x01000000)
T1790 000:385.631 - 0.008ms returns 0
T1790 000:385.637 JLINK_WriteReg(MSP, 0x20000800)
T1790 000:385.642 - 0.008ms returns 0
T1790 000:385.648 JLINK_WriteReg(PSP, 0x20000800)
T1790 000:385.653 - 0.007ms returns 0
T1790 000:385.659 JLINK_WriteReg(CFBP, 0x00000000)
T1790 000:385.664 - 0.007ms returns 0
T1790 000:385.669 JLINK_SetBPEx(Addr = 0x20000000, Type = 0xFFFFFFF2)
T1790 000:385.675 - 0.008ms returns 0x00000003
T1790 000:385.680 JLINK_Go()
T1790 000:385.693   CPU_ReadMem(4 bytes @ 0xE0001000)
T1790 000:386.139   CPU_WriteMem(4 bytes @ 0xE0001000)
T1790 000:388.686 - 3.021ms
T1790 000:388.708 JLINK_IsHalted()
T1790 000:390.607   CPU_ReadMem(2 bytes @ 0x20000000)
T1790 000:390.888 - 2.185ms returns TRUE
T1790 000:390.898 JLINK_ReadReg(R15 (PC))
T1790 000:390.905 - 0.008ms returns 0x20000000
T1790 000:390.910 JLINK_ClrBPEx(BPHandle = 0x00000003)
T1790 000:390.914 - 0.006ms returns 0x00
T1790 000:390.919 JLINK_ReadReg(R0)
T1790 000:390.923 - 0.006ms returns 0x00000000
T1790 000:394.398 JLINK_WriteMem(0x20000000, 0x228 Bytes, ...)
T1790 000:394.406   Data:  00 BE 0A E0 0D 78 2D 06 68 40 08 24 40 00 00 D3 ...
T1790 000:394.418   CPU_WriteMem(552 bytes @ 0x20000000)
T1790 000:396.721 - 2.330ms returns 0x228
T1790 000:396.747 JLINK_HasError()
T1790 000:396.754 JLINK_WriteReg(R0, 0x08000000)
T1790 000:396.761 - 0.008ms returns 0
T1790 000:396.765 JLINK_WriteReg(R1, 0x02DC6C00)
T1790 000:396.771 - 0.008ms returns 0
T1790 000:396.790 JLINK_WriteReg(R2, 0x00000002)
T1790 000:396.795 - 0.006ms returns 0
T1790 000:396.818 JLINK_WriteReg(R3, 0x00000000)
T1790 000:396.823 - 0.006ms returns 0
T1790 000:396.827 JLINK_WriteReg(R4, 0x00000000)
T1790 000:396.831 - 0.006ms returns 0
T1790 000:396.836 JLINK_WriteReg(R5, 0x00000000)
T1790 000:396.843 - 0.012ms returns 0
T1790 000:396.850 JLINK_WriteReg(R6, 0x00000000)
T1790 000:396.854 - 0.005ms returns 0
T1790 000:396.859 JLINK_WriteReg(R7, 0x00000000)
T1790 000:396.863 - 0.005ms returns 0
T1790 000:396.868 JLINK_WriteReg(R8, 0x00000000)
T1790 000:396.872 - 0.006ms returns 0
T1790 000:396.876 JLINK_WriteReg(R9, 0x20000224)
T1790 000:396.880 - 0.006ms returns 0
T1790 000:396.885 JLINK_WriteReg(R10, 0x00000000)
T1790 000:396.889 - 0.005ms returns 0
T1790 000:396.893 JLINK_WriteReg(R11, 0x00000000)
T1790 000:396.897 - 0.005ms returns 0
T1790 000:396.902 JLINK_WriteReg(R12, 0x00000000)
T1790 000:396.906 - 0.006ms returns 0
T1790 000:396.910 JLINK_WriteReg(R13 (SP), 0x20000800)
T1790 000:396.915 - 0.006ms returns 0
T1790 000:396.919 JLINK_WriteReg(R14, 0x20000001)
T1790 000:396.923 - 0.005ms returns 0
T1790 000:396.928 JLINK_WriteReg(R15 (PC), 0x2000002C)
T1790 000:396.932 - 0.006ms returns 0
T1790 000:396.937 JLINK_WriteReg(XPSR, 0x01000000)
T1790 000:396.941 - 0.006ms returns 0
T1790 000:396.945 JLINK_WriteReg(MSP, 0x20000800)
T1790 000:396.949 - 0.006ms returns 0
T1790 000:396.954 JLINK_WriteReg(PSP, 0x20000800)
T1790 000:396.958 - 0.006ms returns 0
T1790 000:396.962 JLINK_WriteReg(CFBP, 0x00000000)
T1790 000:396.966 - 0.006ms returns 0
T1790 000:396.971 JLINK_SetBPEx(Addr = 0x20000000, Type = 0xFFFFFFF2)
T1790 000:396.979   CPU_ReadMem(4 bytes @ 0x20000000)
T1790 000:397.197   CPU_WriteMem(4 bytes @ 0x20000000)
T1790 000:397.414   CPU_ReadMem(4 bytes @ 0x20000000)
T1790 000:397.625   CPU_WriteMem(4 bytes @ 0x20000000)
T1790 000:397.829   CPU_ReadMem(2 bytes @ 0x20000000)
T1790 000:398.035 - 1.067ms returns 0x00000004
T1790 000:398.042 JLINK_Go()
T1790 000:398.048   CPU_WriteMem(2 bytes @ 0x20000000)
T1790 000:398.249   CPU_ReadMem(4 bytes @ 0xE0001000)
T1790 000:398.454   CPU_WriteMem(4 bytes @ 0xE0001000)
T1790 000:400.332 - 2.295ms
T1790 000:400.342 JLINK_IsHalted()
T1790 000:402.044   CPU_ReadMem(2 bytes @ 0x20000000)
T1790 000:402.247 - 1.908ms returns TRUE
T1790 000:402.254 JLINK_ReadReg(R15 (PC))
T1790 000:402.259 - 0.007ms returns 0x20000000
T1790 000:402.264 JLINK_ClrBPEx(BPHandle = 0x00000004)
T1790 000:402.268 - 0.006ms returns 0x00
T1790 000:402.273 JLINK_ReadReg(R0)
T1790 000:402.277 - 0.006ms returns 0x00000000
T1790 000:402.486 JLINK_WriteMem(0x20000228, 0x1D8 Bytes, ...)
T1790 000:402.493   Data:  E0 07 00 20 CD 00 00 08 F3 00 00 08 F5 00 00 08 ...
T1790 000:402.503   CPU_WriteMem(472 bytes @ 0x20000228)
T1790 000:404.477 - 2.009ms returns 0x1D8
T1790 000:404.520 JLINK_WriteMem(0x20000400, 0x228 Bytes, ...)
T1790 000:404.549   Data:  9A 42 02 D2 02 46 08 46 11 46 4A 00 23 D0 C3 0D ...
T1790 000:404.560   CPU_WriteMem(552 bytes @ 0x20000400)
T1790 000:406.777 - 2.262ms returns 0x228
T1790 000:406.787 JLINK_HasError()
T1790 000:406.816 JLINK_WriteReg(R0, 0x08000000)
T1790 000:406.823 - 0.008ms returns 0
T1790 000:406.828 JLINK_WriteReg(R1, 0x00000400)
T1790 000:406.832 - 0.006ms returns 0
T1790 000:406.836 JLINK_WriteReg(R2, 0x20000228)
T1790 000:406.841 - 0.006ms returns 0
T1790 000:406.858 JLINK_WriteReg(R3, 0x00000000)
T1790 000:406.863 - 0.005ms returns 0
T1790 000:406.867 JLINK_WriteReg(R4, 0x00000000)
T1790 000:406.871 - 0.005ms returns 0
T1790 000:406.875 JLINK_WriteReg(R5, 0x00000000)
T1790 000:406.879 - 0.005ms returns 0
T1790 000:406.883 JLINK_WriteReg(R6, 0x00000000)
T1790 000:406.887 - 0.005ms returns 0
T1790 000:406.891 JLINK_WriteReg(R7, 0x00000000)
T1790 000:406.895 - 0.005ms returns 0
T1790 000:406.900 JLINK_WriteReg(R8, 0x00000000)
T1790 000:406.904 - 0.005ms returns 0
T1790 000:406.908 JLINK_WriteReg(R9, 0x20000224)
T1790 000:406.912 - 0.005ms returns 0
T1790 000:406.916 JLINK_WriteReg(R10, 0x00000000)
T1790 000:406.920 - 0.005ms returns 0
T1790 000:406.924 JLINK_WriteReg(R11, 0x00000000)
T1790 000:406.928 - 0.005ms returns 0
T1790 000:406.933 JLINK_WriteReg(R12, 0x00000000)
T1790 000:406.936 - 0.005ms returns 0
T1790 000:406.941 JLINK_WriteReg(R13 (SP), 0x20000800)
T1790 000:406.948 - 0.010ms returns 0
T1790 000:406.954 JLINK_WriteReg(R14, 0x20000001)
T1790 000:406.958 - 0.005ms returns 0
T1790 000:406.962 JLINK_WriteReg(R15 (PC), 0x200001A6)
T1790 000:406.966 - 0.006ms returns 0
T1790 000:406.971 JLINK_WriteReg(XPSR, 0x01000000)
T1790 000:406.975 - 0.005ms returns 0
T1790 000:406.979 JLINK_WriteReg(MSP, 0x20000800)
T1790 000:406.983 - 0.005ms returns 0
T1790 000:406.987 JLINK_WriteReg(PSP, 0x20000800)
T1790 000:406.991 - 0.005ms returns 0
T1790 000:406.995 JLINK_WriteReg(CFBP, 0x00000000)
T1790 000:406.999 - 0.005ms returns 0
T1790 000:407.004 JLINK_SetBPEx(Addr = 0x20000000, Type = 0xFFFFFFF2)
T1790 000:407.008 - 0.006ms returns 0x00000005
T1790 000:407.013 JLINK_Go()
T1790 000:407.021   CPU_ReadMem(4 bytes @ 0xE0001000)
T1790 000:407.234   CPU_WriteMem(4 bytes @ 0xE0001000)
T1790 000:409.069 - 2.059ms
T1790 000:409.076 JLINK_IsHalted()
T1790 000:409.273 - 0.199ms returns FALSE
T1790 000:409.279 JLINK_HasError()
T1790 000:415.723 JLINK_IsHalted()
T1790 000:415.949 - 0.230ms returns FALSE
T1790 000:415.957 JLINK_HasError()
T1790 000:417.960 JLINK_IsHalted()
T1790 000:418.240 - 0.283ms returns FALSE
T1790 000:418.246 JLINK_HasError()
T1790 000:419.964 JLINK_IsHalted()
T1790 000:420.282 - 0.321ms returns FALSE
T1790 000:420.289 JLINK_HasError()
T1790 000:421.931 JLINK_IsHalted()
T1790 000:422.137 - 0.209ms returns FALSE
T1790 000:422.143 JLINK_HasError()
T1790 000:424.154 JLINK_IsHalted()
T1790 000:424.431 - 0.279ms returns FALSE
T1790 000:424.437 JLINK_HasError()
T1790 000:426.442 JLINK_IsHalted()
T1790 000:426.724 - 0.284ms returns FALSE
T1790 000:426.730 JLINK_HasError()
T1790 000:428.420 JLINK_IsHalted()
T1790 000:428.697 - 0.280ms returns FALSE
T1790 000:428.705 JLINK_HasError()
T1790 000:431.436 JLINK_IsHalted()
T1790 000:431.798 - 0.365ms returns FALSE
T1790 000:431.807 JLINK_HasError()
T1790 000:433.817 JLINK_IsHalted()
T1790 000:434.105 - 0.291ms returns FALSE
T1790 000:434.112 JLINK_HasError()
T1790 000:436.122 JLINK_IsHalted()
T1790 000:436.374 - 0.255ms returns FALSE
T1790 000:436.380 JLINK_HasError()
T1790 000:438.391 JLINK_IsHalted()
T1790 000:438.722 - 0.333ms returns FALSE
T1790 000:438.728 JLINK_HasError()
T1790 000:440.418 JLINK_IsHalted()
T1790 000:440.763 - 0.348ms returns FALSE
T1790 000:440.770 JLINK_HasError()
T1790 000:442.515 JLINK_IsHalted()
T1790 000:444.257   CPU_ReadMem(2 bytes @ 0x20000000)
T1790 000:444.541 - 2.030ms returns TRUE
T1790 000:444.550 JLINK_ReadReg(R15 (PC))
T1790 000:444.556 - 0.008ms returns 0x20000000
T1790 000:444.561 JLINK_ClrBPEx(BPHandle = 0x00000005)
T1790 000:444.566 - 0.006ms returns 0x00
T1790 000:444.570 JLINK_ReadReg(R0)
T1790 000:444.574 - 0.006ms returns 0x00000000
T1790 000:444.930 JLINK_WriteMem(0x20000228, 0x1D8 Bytes, ...)
T1790 000:444.939   Data:  56 40 1A 46 7A 40 16 43 44 D0 04 9A 00 2A 2D D0 ...
T1790 000:444.951   CPU_WriteMem(472 bytes @ 0x20000228)
T1790 000:446.943 - 2.034ms returns 0x1D8
T1790 000:446.983 JLINK_WriteMem(0x20000400, 0x228 Bytes, ...)
T1790 000:447.007   Data:  23 03 55 0D 01 24 02 46 2C 49 24 05 78 1B 1B 0B ...
T1790 000:447.053   CPU_WriteMem(552 bytes @ 0x20000400)
T1790 000:449.310 - 2.346ms returns 0x228
T1790 000:449.349 JLINK_HasError()
T1790 000:449.378 JLINK_WriteReg(R0, 0x08000400)
T1790 000:449.384 - 0.007ms returns 0
T1790 000:449.388 JLINK_WriteReg(R1, 0x00000400)
T1790 000:449.393 - 0.006ms returns 0
T1790 000:449.397 JLINK_WriteReg(R2, 0x20000228)
T1790 000:449.401 - 0.005ms returns 0
T1790 000:449.406 JLINK_WriteReg(R3, 0x00000000)
T1790 000:449.410 - 0.006ms returns 0
T1790 000:449.414 JLINK_WriteReg(R4, 0x00000000)
T1790 000:449.418 - 0.006ms returns 0
T1790 000:449.423 JLINK_WriteReg(R5, 0x00000000)
T1790 000:449.427 - 0.005ms returns 0
T1790 000:449.431 JLINK_WriteReg(R6, 0x00000000)
T1790 000:449.435 - 0.005ms returns 0
T1790 000:449.439 JLINK_WriteReg(R7, 0x00000000)
T1790 000:449.444 - 0.005ms returns 0
T1790 000:449.448 JLINK_WriteReg(R8, 0x00000000)
T1790 000:449.452 - 0.006ms returns 0
T1790 000:449.459 JLINK_WriteReg(R9, 0x20000224)
T1790 000:449.466 - 0.008ms returns 0
T1790 000:449.470 JLINK_WriteReg(R10, 0x00000000)
T1790 000:449.474 - 0.005ms returns 0
T1790 000:449.479 JLINK_WriteReg(R11, 0x00000000)
T1790 000:449.483 - 0.006ms returns 0
T1790 000:449.487 JLINK_WriteReg(R12, 0x00000000)
T1790 000:449.491 - 0.005ms returns 0
T1790 000:449.496 JLINK_WriteReg(R13 (SP), 0x20000800)
T1790 000:449.500 - 0.006ms returns 0
T1790 000:449.505 JLINK_WriteReg(R14, 0x20000001)
T1790 000:449.509 - 0.005ms returns 0
T1790 000:449.513 JLINK_WriteReg(R15 (PC), 0x200001A6)
T1790 000:449.517 - 0.006ms returns 0
T1790 000:449.522 JLINK_WriteReg(XPSR, 0x01000000)
T1790 000:449.526 - 0.006ms returns 0
T1790 000:449.530 JLINK_WriteReg(MSP, 0x20000800)
T1790 000:449.534 - 0.006ms returns 0
T1790 000:449.539 JLINK_WriteReg(PSP, 0x20000800)
T1790 000:449.543 - 0.005ms returns 0
T1790 000:449.547 JLINK_WriteReg(CFBP, 0x00000000)
T1790 000:449.551 - 0.005ms returns 0
T1790 000:449.556 JLINK_SetBPEx(Addr = 0x20000000, Type = 0xFFFFFFF2)
T1790 000:449.560 - 0.006ms returns 0x00000006
T1790 000:449.565 JLINK_Go()
T1790 000:449.573   CPU_ReadMem(4 bytes @ 0xE0001000)
T1790 000:449.781   CPU_WriteMem(4 bytes @ 0xE0001000)
T1790 000:451.673 - 2.111ms
T1790 000:451.680 JLINK_IsHalted()
T1790 000:451.875 - 0.197ms returns FALSE
T1790 000:451.880 JLINK_HasError()
T1790 000:453.278 JLINK_IsHalted()
T1790 000:453.539 - 0.263ms returns FALSE
T1790 000:453.545 JLINK_HasError()
T1790 000:455.532 JLINK_IsHalted()
T1790 000:455.765 - 0.236ms returns FALSE
T1790 000:455.771 JLINK_HasError()
T1790 000:457.779 JLINK_IsHalted()
T1790 000:458.061 - 0.284ms returns FALSE
T1790 000:458.067 JLINK_HasError()
T1790 000:459.756 JLINK_IsHalted()
T1790 000:459.963 - 0.210ms returns FALSE
T1790 000:459.970 JLINK_HasError()
T1790 000:461.955 JLINK_IsHalted()
T1790 000:462.204 - 0.252ms returns FALSE
T1790 000:462.211 JLINK_HasError()
T1790 000:463.970 JLINK_IsHalted()
T1790 000:464.308 - 0.340ms returns FALSE
T1790 000:464.314 JLINK_HasError()
T1790 000:466.340 JLINK_IsHalted()
T1790 000:466.722 - 0.386ms returns FALSE
T1790 000:466.729 JLINK_HasError()
T1790 000:468.787 JLINK_IsHalted()
T1790 000:469.065 - 0.281ms returns FALSE
T1790 000:469.071 JLINK_HasError()
T1790 000:471.077 JLINK_IsHalted()
T1790 000:471.538 - 0.464ms returns FALSE
T1790 000:471.544 JLINK_HasError()
T1790 000:473.073 JLINK_IsHalted()
T1790 000:473.414 - 0.343ms returns FALSE
T1790 000:473.420 JLINK_HasError()
T1790 000:475.057 JLINK_IsHalted()
T1790 000:475.317 - 0.266ms returns FALSE
T1790 000:475.327 JLINK_HasError()
T1790 000:477.072 JLINK_IsHalted()
T1790 000:477.371 - 0.304ms returns FALSE
T1790 000:477.380 JLINK_HasError()
T1790 000:479.388 JLINK_IsHalted()
T1790 000:479.734 - 0.349ms returns FALSE
T1790 000:479.741 JLINK_HasError()
T1790 000:481.749 JLINK_IsHalted()
T1790 000:482.007 - 0.261ms returns FALSE
T1790 000:482.013 JLINK_HasError()
T1790 000:483.745 JLINK_IsHalted()
T1790 000:485.544   CPU_ReadMem(2 bytes @ 0x20000000)
T1790 000:485.819 - 2.077ms returns TRUE
T1790 000:485.826 JLINK_ReadReg(R15 (PC))
T1790 000:485.832 - 0.007ms returns 0x20000000
T1790 000:485.837 JLINK_ClrBPEx(BPHandle = 0x00000006)
T1790 000:485.842 - 0.006ms returns 0x00
T1790 000:485.866 JLINK_ReadReg(R0)
T1790 000:485.871 - 0.007ms returns 0x00000000
T1790 000:486.197 JLINK_WriteMem(0x20000228, 0x1D8 Bytes, ...)
T1790 000:486.205   Data:  20 3A D0 40 00 21 10 BD 0B 46 D3 40 D0 40 20 24 ...
T1790 000:486.215   CPU_WriteMem(472 bytes @ 0x20000228)
T1790 000:488.242 - 2.062ms returns 0x1D8
T1790 000:488.277 JLINK_WriteMem(0x20000400, 0x228 Bytes, ...)
T1790 000:488.299   Data:  04 DB 01 24 E4 07 40 42 8C 41 21 46 00 2B 04 DB ...
T1790 000:488.338   CPU_WriteMem(552 bytes @ 0x20000400)
T1790 000:490.625 - 2.356ms returns 0x228
T1790 000:490.639 JLINK_HasError()
T1790 000:490.647 JLINK_WriteReg(R0, 0x08000800)
T1790 000:490.656 - 0.012ms returns 0
T1790 000:490.663 JLINK_WriteReg(R1, 0x00000400)
T1790 000:490.669 - 0.059ms returns 0
T1790 000:490.731 JLINK_WriteReg(R2, 0x20000228)
T1790 000:490.738 - 0.010ms returns 0
T1790 000:490.745 JLINK_WriteReg(R3, 0x00000000)
T1790 000:490.751 - 0.009ms returns 0
T1790 000:490.758 JLINK_WriteReg(R4, 0x00000000)
T1790 000:490.764 - 0.008ms returns 0
T1790 000:490.770 JLINK_WriteReg(R5, 0x00000000)
T1790 000:490.776 - 0.008ms returns 0
T1790 000:490.782 JLINK_WriteReg(R6, 0x00000000)
T1790 000:490.787 - 0.008ms returns 0
T1790 000:490.794 JLINK_WriteReg(R7, 0x00000000)
T1790 000:490.800 - 0.009ms returns 0
T1790 000:490.807 JLINK_WriteReg(R8, 0x00000000)
T1790 000:490.813 - 0.009ms returns 0
T1790 000:490.819 JLINK_WriteReg(R9, 0x20000224)
T1790 000:490.825 - 0.008ms returns 0
T1790 000:490.831 JLINK_WriteReg(R10, 0x00000000)
T1790 000:490.837 - 0.008ms returns 0
T1790 000:490.843 JLINK_WriteReg(R11, 0x00000000)
T1790 000:490.850 - 0.009ms returns 0
T1790 000:490.856 JLINK_WriteReg(R12, 0x00000000)
T1790 000:490.862 - 0.009ms returns 0
T1790 000:490.869 JLINK_WriteReg(R13 (SP), 0x20000800)
T1790 000:490.875 - 0.009ms returns 0
T1790 000:490.881 JLINK_WriteReg(R14, 0x20000001)
T1790 000:490.887 - 0.008ms returns 0
T1790 000:490.893 JLINK_WriteReg(R15 (PC), 0x200001A6)
T1790 000:490.900 - 0.009ms returns 0
T1790 000:490.906 JLINK_WriteReg(XPSR, 0x01000000)
T1790 000:490.912 - 0.009ms returns 0
T1790 000:490.919 JLINK_WriteReg(MSP, 0x20000800)
T1790 000:490.925 - 0.008ms returns 0
T1790 000:490.931 JLINK_WriteReg(PSP, 0x20000800)
T1790 000:490.937 - 0.008ms returns 0
T1790 000:490.943 JLINK_WriteReg(CFBP, 0x00000000)
T1790 000:490.949 - 0.008ms returns 0
T1790 000:490.955 JLINK_SetBPEx(Addr = 0x20000000, Type = 0xFFFFFFF2)
T1790 000:490.963 - 0.010ms returns 0x00000007
T1790 000:490.970 JLINK_Go()
T1790 000:490.982   CPU_ReadMem(4 bytes @ 0xE0001000)
T1790 000:491.205   CPU_WriteMem(4 bytes @ 0xE0001000)
T1790 000:493.245 - 2.280ms
T1790 000:493.255 JLINK_IsHalted()
T1790 000:493.570 - 0.321ms returns FALSE
T1790 000:493.580 JLINK_HasError()
T1790 000:494.916 JLINK_IsHalted()
T1790 000:495.209 - 0.298ms returns FALSE
T1790 000:495.219 JLINK_HasError()
T1790 000:496.762 JLINK_IsHalted()
T1790 000:497.073 - 0.316ms returns FALSE
T1790 000:497.083 JLINK_HasError()
T1790 000:498.907 JLINK_IsHalted()
T1790 000:499.175 - 0.273ms returns FALSE
T1790 000:499.184 JLINK_HasError()
T1790 000:500.396 JLINK_IsHalted()
T1790 000:500.728 - 0.337ms returns FALSE
T1790 000:500.738 JLINK_HasError()
T1790 000:501.947 JLINK_IsHalted()
T1790 000:502.270 - 0.328ms returns FALSE
T1790 000:502.279 JLINK_HasError()
T1790 000:503.723 JLINK_IsHalted()
T1790 000:503.988 - 0.270ms returns FALSE
T1790 000:503.998 JLINK_HasError()
T1790 000:505.717 JLINK_IsHalted()
T1790 000:505.949 - 0.236ms returns FALSE
T1790 000:505.956 JLINK_HasError()
T1790 000:508.738 JLINK_IsHalted()
T1790 000:509.049 - 0.314ms returns FALSE
T1790 000:509.056 JLINK_HasError()
T1790 000:511.071 JLINK_IsHalted()
T1790 000:511.451 - 0.382ms returns FALSE
T1790 000:511.459 JLINK_HasError()
T1790 000:513.465 JLINK_IsHalted()
T1790 000:513.753 - 0.291ms returns FALSE
T1790 000:513.759 JLINK_HasError()
T1790 000:515.838 JLINK_IsHalted()
T1790 000:516.112 - 0.276ms returns FALSE
T1790 000:516.118 JLINK_HasError()
T1790 000:517.905 JLINK_IsHalted()
T1790 000:518.212 - 0.309ms returns FALSE
T1790 000:518.218 JLINK_HasError()
T1790 000:520.283 JLINK_IsHalted()
T1790 000:520.545 - 0.266ms returns FALSE
T1790 000:520.554 JLINK_HasError()
T1790 000:522.550 JLINK_IsHalted()
T1790 000:522.917 - 0.373ms returns FALSE
T1790 000:522.928 JLINK_HasError()
T1790 000:524.517 JLINK_IsHalted()
T1790 000:524.713 - 0.199ms returns FALSE
T1790 000:524.720 JLINK_HasError()
T1790 000:526.531 JLINK_IsHalted()
T1790 000:528.292   CPU_ReadMem(2 bytes @ 0x20000000)
T1790 000:528.574 - 2.047ms returns TRUE
T1790 000:528.582 JLINK_ReadReg(R15 (PC))
T1790 000:528.589 - 0.008ms returns 0x20000000
T1790 000:528.594 JLINK_ClrBPEx(BPHandle = 0x00000007)
T1790 000:528.598 - 0.006ms returns 0x00
T1790 000:528.606 JLINK_ReadReg(R0)
T1790 000:528.613 - 0.008ms returns 0x00000000
T1790 000:528.936 JLINK_WriteMem(0x20000228, 0x1D8 Bytes, ...)
T1790 000:528.944   Data:  01 21 04 48 FF F7 2F FF 07 B0 00 BD 84 80 00 00 ...
T1790 000:528.954   CPU_WriteMem(472 bytes @ 0x20000228)
T1790 000:530.974 - 2.055ms returns 0x1D8
T1790 000:531.010 JLINK_WriteMem(0x20000400, 0x228 Bytes, ...)
T1790 000:531.034   Data:  FF F7 C2 FF B6 1C AD 1C 78 1C 87 B2 E1 0F 09 19 ...
T1790 000:531.072   CPU_WriteMem(552 bytes @ 0x20000400)
T1790 000:533.378 - 2.389ms returns 0x228
T1790 000:533.419 JLINK_HasError()
T1790 000:533.445 JLINK_WriteReg(R0, 0x08000C00)
T1790 000:533.474 - 0.050ms returns 0
T1790 000:533.499 JLINK_WriteReg(R1, 0x00000400)
T1790 000:533.503 - 0.006ms returns 0
T1790 000:533.508 JLINK_WriteReg(R2, 0x20000228)
T1790 000:533.512 - 0.006ms returns 0
T1790 000:533.516 JLINK_WriteReg(R3, 0x00000000)
T1790 000:533.520 - 0.005ms returns 0
T1790 000:533.525 JLINK_WriteReg(R4, 0x00000000)
T1790 000:533.529 - 0.005ms returns 0
T1790 000:533.533 JLINK_WriteReg(R5, 0x00000000)
T1790 000:533.537 - 0.006ms returns 0
T1790 000:533.541 JLINK_WriteReg(R6, 0x00000000)
T1790 000:533.546 - 0.005ms returns 0
T1790 000:533.550 JLINK_WriteReg(R7, 0x00000000)
T1790 000:533.554 - 0.005ms returns 0
T1790 000:533.558 JLINK_WriteReg(R8, 0x00000000)
T1790 000:533.563 - 0.006ms returns 0
T1790 000:533.567 JLINK_WriteReg(R9, 0x20000224)
T1790 000:533.572 - 0.006ms returns 0
T1790 000:533.576 JLINK_WriteReg(R10, 0x00000000)
T1790 000:533.581 - 0.006ms returns 0
T1790 000:533.585 JLINK_WriteReg(R11, 0x00000000)
T1790 000:533.589 - 0.006ms returns 0
T1790 000:533.594 JLINK_WriteReg(R12, 0x00000000)
T1790 000:533.598 - 0.005ms returns 0
T1790 000:533.602 JLINK_WriteReg(R13 (SP), 0x20000800)
T1790 000:533.607 - 0.006ms returns 0
T1790 000:533.611 JLINK_WriteReg(R14, 0x20000001)
T1790 000:533.615 - 0.006ms returns 0
T1790 000:533.620 JLINK_WriteReg(R15 (PC), 0x200001A6)
T1790 000:533.624 - 0.006ms returns 0
T1790 000:533.628 JLINK_WriteReg(XPSR, 0x01000000)
T1790 000:533.632 - 0.006ms returns 0
T1790 000:533.637 JLINK_WriteReg(MSP, 0x20000800)
T1790 000:533.641 - 0.006ms returns 0
T1790 000:533.645 JLINK_WriteReg(PSP, 0x20000800)
T1790 000:533.649 - 0.006ms returns 0
T1790 000:533.654 JLINK_WriteReg(CFBP, 0x00000000)
T1790 000:533.658 - 0.006ms returns 0
T1790 000:533.662 JLINK_SetBPEx(Addr = 0x20000000, Type = 0xFFFFFFF2)
T1790 000:533.667 - 0.006ms returns 0x00000008
T1790 000:533.672 JLINK_Go()
T1790 000:533.680   CPU_ReadMem(4 bytes @ 0xE0001000)
T1790 000:533.920   CPU_WriteMem(4 bytes @ 0xE0001000)
T1790 000:535.999 - 2.331ms
T1790 000:536.007 JLINK_IsHalted()
T1790 000:536.296 - 0.293ms returns FALSE
T1790 000:536.304 JLINK_HasError()
T1790 000:537.590 JLINK_IsHalted()
T1790 000:537.902 - 0.315ms returns FALSE
T1790 000:537.909 JLINK_HasError()
T1790 000:539.927 JLINK_IsHalted()
T1790 000:540.249 - 0.325ms returns FALSE
T1790 000:540.256 JLINK_HasError()
T1790 000:542.267 JLINK_IsHalted()
T1790 000:542.538 - 0.274ms returns FALSE
T1790 000:542.545 JLINK_HasError()
T1790 000:544.418 JLINK_IsHalted()
T1790 000:544.763 - 0.349ms returns FALSE
T1790 000:544.770 JLINK_HasError()
T1790 000:546.416 JLINK_IsHalted()
T1790 000:546.747 - 0.335ms returns FALSE
T1790 000:546.754 JLINK_HasError()
T1790 000:548.768 JLINK_IsHalted()
T1790 000:549.007 - 0.243ms returns FALSE
T1790 000:549.017 JLINK_HasError()
T1790 000:550.184 JLINK_IsHalted()
T1790 000:550.445 - 0.266ms returns FALSE
T1790 000:550.455 JLINK_HasError()
T1790 000:552.054 JLINK_IsHalted()
T1790 000:552.263 - 0.214ms returns FALSE
T1790 000:552.272 JLINK_HasError()
T1790 000:554.275 JLINK_IsHalted()
T1790 000:554.569 - 0.296ms returns FALSE
T1790 000:554.575 JLINK_HasError()
T1790 000:556.279 JLINK_IsHalted()
T1790 000:556.594 - 0.319ms returns FALSE
T1790 000:556.601 JLINK_HasError()
T1790 000:558.271 JLINK_IsHalted()
T1790 000:558.596 - 0.329ms returns FALSE
T1790 000:558.603 JLINK_HasError()
T1790 000:560.609 JLINK_IsHalted()
T1790 000:560.947 - 0.341ms returns FALSE
T1790 000:560.953 JLINK_HasError()
T1790 000:562.609 JLINK_IsHalted()
T1790 000:562.978 - 0.372ms returns FALSE
T1790 000:562.985 JLINK_HasError()
T1790 000:564.990 JLINK_IsHalted()
T1790 000:565.341 - 0.353ms returns FALSE
T1790 000:565.347 JLINK_HasError()
T1790 000:567.155 JLINK_IsHalted()
T1790 000:567.411 - 0.261ms returns FALSE
T1790 000:567.421 JLINK_HasError()
T1790 000:568.991 JLINK_IsHalted()
T1790 000:570.832   CPU_ReadMem(2 bytes @ 0x20000000)
T1790 000:571.117 - 2.129ms returns TRUE
T1790 000:571.124 JLINK_ReadReg(R15 (PC))
T1790 000:571.129 - 0.007ms returns 0x20000000
T1790 000:571.134 JLINK_ClrBPEx(BPHandle = 0x00000008)
T1790 000:571.138 - 0.006ms returns 0x00
T1790 000:571.143 JLINK_ReadReg(R0)
T1790 000:571.147 - 0.005ms returns 0x00000000
T1790 000:571.475 JLINK_WriteMem(0x20000228, 0x1D8 Bytes, ...)
T1790 000:571.482   Data:  0F 26 9E 40 25 68 B5 43 16 46 9E 40 35 43 25 60 ...
T1790 000:571.492   CPU_WriteMem(472 bytes @ 0x20000228)
T1790 000:573.509 - 2.054ms returns 0x1D8
T1790 000:573.547 JLINK_WriteMem(0x20000400, 0x228 Bytes, ...)
T1790 000:573.570   Data:  05 48 05 E0 05 48 03 E0 05 48 01 E0 03 48 00 BF ...
T1790 000:573.610   CPU_WriteMem(552 bytes @ 0x20000400)
T1790 000:575.860 - 2.329ms returns 0x228
T1790 000:575.896 JLINK_HasError()
T1790 000:575.921 JLINK_WriteReg(R0, 0x08001000)
T1790 000:575.947 - 0.036ms returns 0
T1790 000:575.987 JLINK_WriteReg(R1, 0x00000400)
T1790 000:575.991 - 0.006ms returns 0
T1790 000:575.995 JLINK_WriteReg(R2, 0x20000228)
T1790 000:575.999 - 0.006ms returns 0
T1790 000:576.004 JLINK_WriteReg(R3, 0x00000000)
T1790 000:576.009 - 0.007ms returns 0
T1790 000:576.013 JLINK_WriteReg(R4, 0x00000000)
T1790 000:576.018 - 0.006ms returns 0
T1790 000:576.022 JLINK_WriteReg(R5, 0x00000000)
T1790 000:576.026 - 0.006ms returns 0
T1790 000:576.031 JLINK_WriteReg(R6, 0x00000000)
T1790 000:576.035 - 0.005ms returns 0
T1790 000:576.039 JLINK_WriteReg(R7, 0x00000000)
T1790 000:576.043 - 0.005ms returns 0
T1790 000:576.047 JLINK_WriteReg(R8, 0x00000000)
T1790 000:576.051 - 0.005ms returns 0
T1790 000:576.056 JLINK_WriteReg(R9, 0x20000224)
T1790 000:576.060 - 0.005ms returns 0
T1790 000:576.064 JLINK_WriteReg(R10, 0x00000000)
T1790 000:576.068 - 0.005ms returns 0
T1790 000:576.073 JLINK_WriteReg(R11, 0x00000000)
T1790 000:576.077 - 0.005ms returns 0
T1790 000:576.081 JLINK_WriteReg(R12, 0x00000000)
T1790 000:576.085 - 0.005ms returns 0
T1790 000:576.090 JLINK_WriteReg(R13 (SP), 0x20000800)
T1790 000:576.094 - 0.006ms returns 0
T1790 000:576.098 JLINK_WriteReg(R14, 0x20000001)
T1790 000:576.102 - 0.006ms returns 0
T1790 000:576.107 JLINK_WriteReg(R15 (PC), 0x200001A6)
T1790 000:576.111 - 0.006ms returns 0
T1790 000:576.115 JLINK_WriteReg(XPSR, 0x01000000)
T1790 000:576.119 - 0.005ms returns 0
T1790 000:576.124 JLINK_WriteReg(MSP, 0x20000800)
T1790 000:576.128 - 0.005ms returns 0
T1790 000:576.132 JLINK_WriteReg(PSP, 0x20000800)
T1790 000:576.136 - 0.006ms returns 0
T1790 000:576.141 JLINK_WriteReg(CFBP, 0x00000000)
T1790 000:576.145 - 0.006ms returns 0
T1790 000:576.149 JLINK_SetBPEx(Addr = 0x20000000, Type = 0xFFFFFFF2)
T1790 000:576.154 - 0.006ms returns 0x00000009
T1790 000:576.159 JLINK_Go()
T1790 000:576.167   CPU_ReadMem(4 bytes @ 0xE0001000)
T1790 000:576.407   CPU_WriteMem(4 bytes @ 0xE0001000)
T1790 000:578.538 - 2.383ms
T1790 000:578.545 JLINK_IsHalted()
T1790 000:578.771 - 0.228ms returns FALSE
T1790 000:578.777 JLINK_HasError()
T1790 000:580.002 JLINK_IsHalted()
T1790 000:580.238 - 0.238ms returns FALSE
T1790 000:580.244 JLINK_HasError()
T1790 000:582.019 JLINK_IsHalted()
T1790 000:582.424 - 0.408ms returns FALSE
T1790 000:582.430 JLINK_HasError()
T1790 000:583.993 JLINK_IsHalted()
T1790 000:584.200 - 0.210ms returns FALSE
T1790 000:584.207 JLINK_HasError()
T1790 000:586.192 JLINK_IsHalted()
T1790 000:586.445 - 0.256ms returns FALSE
T1790 000:586.452 JLINK_HasError()
T1790 000:588.208 JLINK_IsHalted()
T1790 000:588.538 - 0.335ms returns FALSE
T1790 000:588.547 JLINK_HasError()
T1790 000:590.206 JLINK_IsHalted()
T1790 000:590.539 - 0.335ms returns FALSE
T1790 000:590.545 JLINK_HasError()
T1790 000:592.556 JLINK_IsHalted()
T1790 000:592.824 - 0.270ms returns FALSE
T1790 000:592.830 JLINK_HasError()
T1790 000:594.841 JLINK_IsHalted()
T1790 000:595.116 - 0.278ms returns FALSE
T1790 000:595.122 JLINK_HasError()
T1790 000:597.129 JLINK_IsHalted()
T1790 000:597.410 - 0.284ms returns FALSE
T1790 000:597.417 JLINK_HasError()
T1790 000:599.130 JLINK_IsHalted()
T1790 000:599.454 - 0.331ms returns FALSE
T1790 000:599.466 JLINK_HasError()
T1790 000:601.099 JLINK_IsHalted()
T1790 000:601.364 - 0.271ms returns FALSE
T1790 000:601.375 JLINK_HasError()
T1790 000:603.275 JLINK_IsHalted()
T1790 000:603.566 - 0.296ms returns FALSE
T1790 000:603.576 JLINK_HasError()
T1790 000:604.784 JLINK_IsHalted()
T1790 000:605.105 - 0.327ms returns FALSE
T1790 000:605.115 JLINK_HasError()
T1790 000:606.952 JLINK_IsHalted()
T1790 000:607.212 - 0.265ms returns FALSE
T1790 000:607.222 JLINK_HasError()
T1790 000:608.948 JLINK_IsHalted()
T1790 000:609.260 - 0.317ms returns FALSE
T1790 000:609.270 JLINK_HasError()
T1790 000:610.907 JLINK_IsHalted()
T1790 000:612.642   CPU_ReadMem(2 bytes @ 0x20000000)
T1790 000:612.859 - 1.958ms returns TRUE
T1790 000:612.869 JLINK_ReadReg(R15 (PC))
T1790 000:612.875 - 0.008ms returns 0x20000000
T1790 000:612.881 JLINK_ClrBPEx(BPHandle = 0x00000009)
T1790 000:612.885 - 0.006ms returns 0x00
T1790 000:612.890 JLINK_ReadReg(R0)
T1790 000:612.894 - 0.006ms returns 0x00000000
T1790 000:613.232 JLINK_WriteMem(0x20000228, 0x1D8 Bytes, ...)
T1790 000:613.240   Data:  FF F7 07 FE 7D 20 C0 00 FF F7 36 FC 01 21 C9 02 ...
T1790 000:613.250   CPU_WriteMem(472 bytes @ 0x20000228)
T1790 000:615.324 - 2.097ms returns 0x1D8
T1790 000:615.335 JLINK_WriteMem(0x20000400, 0x228 Bytes, ...)
T1790 000:615.341   Data:  90 42 05 D1 02 6B 12 0A 12 02 8B 7A 1A 43 02 63 ...
T1790 000:615.351   CPU_WriteMem(552 bytes @ 0x20000400)
T1790 000:617.578 - 2.263ms returns 0x228
T1790 000:617.620 JLINK_HasError()
T1790 000:617.647 JLINK_WriteReg(R0, 0x08001400)
T1790 000:617.677 - 0.040ms returns 0
T1790 000:617.708 JLINK_WriteReg(R1, 0x00000400)
T1790 000:617.713 - 0.006ms returns 0
T1790 000:617.717 JLINK_WriteReg(R2, 0x20000228)
T1790 000:617.721 - 0.006ms returns 0
T1790 000:617.726 JLINK_WriteReg(R3, 0x00000000)
T1790 000:617.731 - 0.006ms returns 0
T1790 000:617.735 JLINK_WriteReg(R4, 0x00000000)
T1790 000:617.739 - 0.006ms returns 0
T1790 000:617.744 JLINK_WriteReg(R5, 0x00000000)
T1790 000:617.748 - 0.005ms returns 0
T1790 000:617.752 JLINK_WriteReg(R6, 0x00000000)
T1790 000:617.756 - 0.006ms returns 0
T1790 000:617.761 JLINK_WriteReg(R7, 0x00000000)
T1790 000:617.765 - 0.005ms returns 0
T1790 000:617.769 JLINK_WriteReg(R8, 0x00000000)
T1790 000:617.773 - 0.005ms returns 0
T1790 000:617.777 JLINK_WriteReg(R9, 0x20000224)
T1790 000:617.781 - 0.005ms returns 0
T1790 000:617.786 JLINK_WriteReg(R10, 0x00000000)
T1790 000:617.790 - 0.005ms returns 0
T1790 000:617.794 JLINK_WriteReg(R11, 0x00000000)
T1790 000:617.798 - 0.006ms returns 0
T1790 000:617.803 JLINK_WriteReg(R12, 0x00000000)
T1790 000:617.807 - 0.005ms returns 0
T1790 000:617.811 JLINK_WriteReg(R13 (SP), 0x20000800)
T1790 000:617.816 - 0.006ms returns 0
T1790 000:617.820 JLINK_WriteReg(R14, 0x20000001)
T1790 000:617.824 - 0.006ms returns 0
T1790 000:617.829 JLINK_WriteReg(R15 (PC), 0x200001A6)
T1790 000:617.833 - 0.006ms returns 0
T1790 000:617.837 JLINK_WriteReg(XPSR, 0x01000000)
T1790 000:617.841 - 0.006ms returns 0
T1790 000:617.846 JLINK_WriteReg(MSP, 0x20000800)
T1790 000:617.850 - 0.005ms returns 0
T1790 000:617.854 JLINK_WriteReg(PSP, 0x20000800)
T1790 000:617.858 - 0.006ms returns 0
T1790 000:617.863 JLINK_WriteReg(CFBP, 0x00000000)
T1790 000:617.867 - 0.006ms returns 0
T1790 000:617.871 JLINK_SetBPEx(Addr = 0x20000000, Type = 0xFFFFFFF2)
T1790 000:617.876 - 0.006ms returns 0x0000000A
T1790 000:617.881 JLINK_Go()
T1790 000:617.894   CPU_ReadMem(4 bytes @ 0xE0001000)
T1790 000:618.101   CPU_WriteMem(4 bytes @ 0xE0001000)
T1790 000:619.993 - 2.116ms
T1790 000:620.000 JLINK_IsHalted()
T1790 000:620.221 - 0.223ms returns FALSE
T1790 000:620.227 JLINK_HasError()
T1790 000:622.867 JLINK_IsHalted()
T1790 000:623.084 - 0.220ms returns FALSE
T1790 000:623.091 JLINK_HasError()
T1790 000:625.101 JLINK_IsHalted()
T1790 000:625.359 - 0.261ms returns FALSE
T1790 000:625.366 JLINK_HasError()
T1790 000:627.370 JLINK_IsHalted()
T1790 000:627.647 - 0.279ms returns FALSE
T1790 000:627.653 JLINK_HasError()
T1790 000:629.369 JLINK_IsHalted()
T1790 000:629.697 - 0.330ms returns FALSE
T1790 000:629.703 JLINK_HasError()
T1790 000:631.343 JLINK_IsHalted()
T1790 000:631.570 - 0.231ms returns FALSE
T1790 000:631.579 JLINK_HasError()
T1790 000:633.363 JLINK_IsHalted()
T1790 000:633.723 - 0.363ms returns FALSE
T1790 000:633.729 JLINK_HasError()
T1790 000:635.715 JLINK_IsHalted()
T1790 000:635.966 - 0.253ms returns FALSE
T1790 000:635.972 JLINK_HasError()
T1790 000:637.978 JLINK_IsHalted()
T1790 000:638.252 - 0.277ms returns FALSE
T1790 000:638.258 JLINK_HasError()
T1790 000:640.009 JLINK_IsHalted()
T1790 000:640.276 - 0.269ms returns FALSE
T1790 000:640.282 JLINK_HasError()
T1790 000:641.966 JLINK_IsHalted()
T1790 000:642.291 - 0.327ms returns FALSE
T1790 000:642.297 JLINK_HasError()
T1790 000:644.277 JLINK_IsHalted()
T1790 000:644.569 - 0.294ms returns FALSE
T1790 000:644.575 JLINK_HasError()
T1790 000:646.251 JLINK_IsHalted()
T1790 000:646.541 - 0.293ms returns FALSE
T1790 000:646.548 JLINK_HasError()
T1790 000:648.551 JLINK_IsHalted()
T1790 000:648.837 - 0.288ms returns FALSE
T1790 000:648.843 JLINK_HasError()
T1790 000:650.545 JLINK_IsHalted()
T1790 000:650.819 - 0.277ms returns FALSE
T1790 000:650.825 JLINK_HasError()
T1790 000:652.540 JLINK_IsHalted()
T1790 000:654.323   CPU_ReadMem(2 bytes @ 0x20000000)
